
T20AC 000:435 SEGGER J-Link V4.20p Log File (0008ms, 0433ms total)
T20AC 000:435 DLL Compiled: Nov 19 2010 15:55:07 (0008ms, 0433ms total)
T20AC 000:435 Logging started @ 2015-11-13 09:06 (0008ms, 0433ms total)
T20AC 000:443 JLINK_SetWarnOutHandler(...) (0000ms, 0441ms total)
T20AC 000:443 JLINK_OpenEx(...)
Firmware: J-Link ARM V8 compiled Dec  6 2011 18:57:44
Hardware: V8.00
S/N: 99999994
Feature(s): RDI,FlashDL,FlashBP,JFlash,GDBFULL  returns O.K. (0234ms, 0441ms total)
T20AC 000:677 JLINK_SetErrorOutHandler(...) (0000ms, 0675ms total)
T20AC 000:678 JLINK_ExecCommand("Device = STM32F103VC", ...)
                JLINK_ExecCommand("map ram 0x20000000 - 0x2000BFFF", ...)  returns 0x00 (0000ms, 0000ms total)
                JLINK_AddMirrorAreaEx(Addr = 0x00000000, Size = 0x00000000) (0000ms, 0000ms total)
                returns 0x00 (0000ms, 0675ms total)
T20AC 000:680 JLINK_ExecCommand("ProjectFile = "E:\金山快盘\泛亚金属\出差\新建文件夹\新建文件夹\2015-08-21-泛亚金属-STM程序-6种模式-增加QC输入\JLinkSettings.ini"", ...)  returns 0x00 (0000ms, 0675ms total)
T20AC 000:686 JLINK_ExecCommand("DisableConnectionTimeout", ...)  returns 0x00 (0000ms, 0675ms total)
T20AC 000:686 JLINK_TIF_Select(JLINKARM_TIF_SWD)  returns 0x00 (0003ms, 0675ms total)
T20AC 000:689 JLINK_SetSpeed(2000) (0002ms, 0678ms total)
T20AC 000:691 JLINK_GetHardwareVersion()  returns 0x13880 (0000ms, 0680ms total)
T20AC 000:691 JLINK_GetDLLVersion()  returns 42016 (0000ms, 0680ms total)
T20AC 000:691 JLINK_GetFirmwareString(...) (0000ms, 0680ms total)
T20AC 000:702 JLINK_GetDLLVersion()  returns 42016 (0000ms, 0680ms total)
T20AC 000:702 JLINK_GetCompileDateTime() (0000ms, 0680ms total)
T20AC 000:705 JLINK_GetFirmwareString(...) (0000ms, 0680ms total)
T20AC 000:707 JLINK_GetHardwareVersion()  returns 0x13880 (0000ms, 0680ms total)
T20AC 000:713 JLINK_Reset() >0x108 TIF>Found SWD-DP with ID 0x1BA01477 >0x33 TIF> >0x33 TIF> >0x35 TIF> >0x33 TIF> >0x35 TIF> >0x33 TIF> >0x33 TIF> >0x9B TIF> >0x9B TIF> >0x1D7 TIF> >0x13A TIF> >0x13A TIF>TPIU fitted. >0x13A TIF>ETM fitted. >0x13A TIF>  FPUnit: 6 code (BP) slots and 2 literal slots >0x13A TIF> >0x13A TIF> (0068ms, 0680ms total)
T20AC 000:781 JLINK_GetId() >0x33 TIF>  returns 0x1BA01477 (0002ms, 0748ms total)
T20AC 000:783 JLINK_GetDebugInfo(0x100) -- Value=0xE00FF003  returns 0x00 (0000ms, 0750ms total)
T20AC 000:785 JLINK_ReadMem (0xE00FF000, 0x0018 Bytes, ...) -- CPU_ReadMem(24 bytes @ 0xE00FF000) -- Data:  03 F0 F0 FF 03 20 F0 FF 03 30 F0 FF 03 10 F0 FF ...  returns 0x00 (0001ms, 0750ms total)
T20AC 000:786 JLINK_ReadMemU32(0xE000ED00, 0x0001 Items, ...) -- CPU_ReadMem(4 bytes @ 0xE000ED00) -- Data:  31 C2 1F 41  returns 0x01 (0001ms, 0751ms total)
T20AC 000:789 JLINK_Halt()  returns 0x00 (0000ms, 0752ms total)
T20AC 000:789 JLINK_IsHalted()  returns TRUE (0000ms, 0752ms total)
T20AC 000:789 JLINK_ReadMemU32(0xE000EDF0, 0x0001 Items, ...) -- CPU_ReadMem(4 bytes @ 0xE000EDF0) -- Data:  03 00 03 00  returns 0x01 (0001ms, 0752ms total)
T20AC 000:790 JLINK_WriteU32(0xE000EDF0, 0xA05F0003) -- CPU_WriteMem(4 bytes @ 0xE000EDF0)  returns 0x00 (0001ms, 0753ms total)
T20AC 000:791 JLINK_WriteU32(0xE000EDFC, 0x01000000) -- CPU_WriteMem(4 bytes @ 0xE000EDFC)  returns 0x00 (0001ms, 0754ms total)
T20AC 000:792 JLINK_ReadMemU32(0xE0002000, 0x0001 Items, ...) -- CPU_ReadMem(4 bytes @ 0xE0002000) -- Data:  60 02 00 00  returns 0x01 (0001ms, 0755ms total)
T20AC 000:793 JLINK_ReadMemU32(0xE0001000, 0x0001 Items, ...) -- CPU_ReadMem(4 bytes @ 0xE0001000) -- Data:  01 00 00 40  returns 0x01 (0001ms, 0756ms total)
T20AC 000:800 JLINK_GetHWStatus(...)  returns 0x00 (0002ms, 0757ms total)
T20AC 000:807 JLINK_GetNumBPUnits(Type = 0xFFFFFF00)  returns 0x06 (0000ms, 0759ms total)
T20AC 000:807 JLINK_GetNumBPUnits(Type = 0xF0)  returns 0x800 (0000ms, 0759ms total)
T20AC 000:807 JLINK_GetNumWPUnits()  returns 0x00 (0000ms, 0759ms total)
T20AC 000:813 JLINK_GetSpeed()  returns 0x7D0 (0000ms, 0759ms total)
T20AC 000:816 JLINK_ReadMemU32(0xE000E004, 0x0001 Items, ...) -- CPU_ReadMem(4 bytes @ 0xE000E004) -- Data:  01 00 00 00  returns 0x01 (0001ms, 0759ms total)
T20AC 000:817 JLINK_WriteMem(0xE0001000, 0x001C Bytes, ...) -- Data:  01 00 00 00 00 00 00 00 00 00 00 00 00 00 00 00 ... -- CPU_WriteMem(28 bytes @ 0xE0001000)  returns 0x1C (0001ms, 0760ms total)
T20AC 000:818 JLINK_ReadMem (0xE0001000, 0x001C Bytes, ...) -- CPU_ReadMem(28 bytes @ 0xE0001000) -- Data:  01 00 00 40 00 00 00 00 00 00 00 00 00 00 00 00 ...  returns 0x00 (0001ms, 0761ms total)
T20AC 000:819 JLINK_Halt()  returns 0x00 (0000ms, 0762ms total)
T20AC 000:819 JLINK_IsHalted()  returns TRUE (0000ms, 0762ms total)
T20AC 000:822 JLINK_WriteMem(0x20000000, 0x0164 Bytes, ...) -- Data:  00 BE 0A E0 0D 78 2D 06 68 40 08 24 40 00 00 D3 ... -- CPU_WriteMem(356 bytes @ 0x20000000)  returns 0x164 (0005ms, 0762ms total)
T20AC 000:827 JLINK_WriteReg(R0, 0x08000000)  returns 0x00 (0000ms, 0767ms total)
T20AC 000:827 JLINK_WriteReg(R1, 0x007A1200)  returns 0x00 (0000ms, 0767ms total)
T20AC 000:827 JLINK_WriteReg(R2, 0x00000001)  returns 0x00 (0000ms, 0767ms total)
T20AC 000:827 JLINK_WriteReg(R3, 0x00000000)  returns 0x00 (0000ms, 0767ms total)
T20AC 000:827 JLINK_WriteReg(R4, 0x00000000)  returns 0x00 (0000ms, 0767ms total)
T20AC 000:827 JLINK_WriteReg(R5, 0x00000000)  returns 0x00 (0000ms, 0767ms total)
T20AC 000:827 JLINK_WriteReg(R6, 0x00000000)  returns 0x00 (0000ms, 0767ms total)
T20AC 000:827 JLINK_WriteReg(R7, 0x00000000)  returns 0x00 (0000ms, 0767ms total)
T20AC 000:827 JLINK_WriteReg(R8, 0x00000000)  returns 0x00 (0000ms, 0767ms total)
T20AC 000:827 JLINK_WriteReg(R9, 0x20000160)  returns 0x00 (0000ms, 0767ms total)
T20AC 000:827 JLINK_WriteReg(R10, 0x00000000)  returns 0x00 (0000ms, 0767ms total)
T20AC 000:827 JLINK_WriteReg(R11, 0x00000000)  returns 0x00 (0000ms, 0767ms total)
T20AC 000:827 JLINK_WriteReg(R12, 0x00000000)  returns 0x00 (0000ms, 0767ms total)
T20AC 000:827 JLINK_WriteReg(R13, 0x20000800)  returns 0x00 (0000ms, 0767ms total)
T20AC 000:827 JLINK_WriteReg(R14, 0x20000001)  returns 0x00 (0000ms, 0767ms total)
T20AC 000:827 JLINK_WriteReg(R15, 0x20000038)  returns 0x00 (0000ms, 0767ms total)
T20AC 000:827 JLINK_WriteReg(XPSR, 0x01000000)  returns 0x00 (0000ms, 0767ms total)
T20AC 000:827 JLINK_WriteReg(MSP, 0x20000800)  returns 0x00 (0000ms, 0767ms total)
T20AC 000:827 JLINK_WriteReg(PSP, 0x20000800)  returns 0x00 (0000ms, 0767ms total)
T20AC 000:827 JLINK_WriteReg(CFBP, 0x00000000)  returns 0x00 (0000ms, 0767ms total)
T20AC 000:827 JLINK_SetBPEx(Addr = 0x20000000, Type = 0xFFFFFFF2) -- CPU_ReadMem(2 bytes @ 0x20000000)  returns 0x00000001 (0002ms, 0767ms total)
T20AC 000:829 JLINK_Go() -- CPU_WriteMem(2 bytes @ 0x20000000) -- CPU_WriteMem(4 bytes @ 0xE0002008) -- CPU_WriteMem(4 bytes @ 0xE000200C) -- CPU_WriteMem(4 bytes @ 0xE0002010) -- CPU_WriteMem(4 bytes @ 0xE0002014) -- CPU_WriteMem(4 bytes @ 0xE0002018) -- CPU_WriteMem(4 bytes @ 0xE000201C) (0010ms, 0769ms total)
T20AC 000:839 JLINK_IsHalted() -- CPU_ReadMem(2 bytes @ 0x20000000)  returns TRUE (0010ms, 0779ms total)
T20AC 000:849 JLINK_ReadReg(R15)  returns 0x20000000 (0000ms, 0779ms total)
T20AC 000:849 JLINK_ClrBPEx(BPHandle = 0x00000001)  returns 0x00 (0000ms, 0779ms total)
T20AC 000:849 JLINK_ReadReg(R0)  returns 0x00000000 (0000ms, 0779ms total)
T20AC 000:849 JLINK_WriteReg(R0, 0x08000000)  returns 0x00 (0000ms, 0779ms total)
T20AC 000:849 JLINK_WriteReg(R1, 0x007A1200)  returns 0x00 (0000ms, 0779ms total)
T20AC 000:849 JLINK_WriteReg(R2, 0x00000001)  returns 0x00 (0001ms, 0779ms total)
T20AC 000:850 JLINK_WriteReg(R3, 0x00000000)  returns 0x00 (0000ms, 0780ms total)
T20AC 000:850 JLINK_WriteReg(R4, 0x00000000)  returns 0x00 (0000ms, 0780ms total)
T20AC 000:850 JLINK_WriteReg(R5, 0x00000000)  returns 0x00 (0000ms, 0780ms total)
T20AC 000:850 JLINK_WriteReg(R6, 0x00000000)  returns 0x00 (0000ms, 0780ms total)
T20AC 000:850 JLINK_WriteReg(R7, 0x00000000)  returns 0x00 (0000ms, 0780ms total)
T20AC 000:850 JLINK_WriteReg(R8, 0x00000000)  returns 0x00 (0000ms, 0780ms total)
T20AC 000:850 JLINK_WriteReg(R9, 0x20000160)  returns 0x00 (0000ms, 0780ms total)
T20AC 000:850 JLINK_WriteReg(R10, 0x00000000)  returns 0x00 (0000ms, 0780ms total)
T20AC 000:850 JLINK_WriteReg(R11, 0x00000000)  returns 0x00 (0000ms, 0780ms total)
T20AC 000:850 JLINK_WriteReg(R12, 0x00000000)  returns 0x00 (0000ms, 0780ms total)
T20AC 000:850 JLINK_WriteReg(R13, 0x20000800)  returns 0x00 (0000ms, 0780ms total)
T20AC 000:850 JLINK_WriteReg(R14, 0x20000001)  returns 0x00 (0000ms, 0780ms total)
T20AC 000:850 JLINK_WriteReg(R15, 0x2000007C)  returns 0x00 (0000ms, 0780ms total)
T20AC 000:850 JLINK_WriteReg(XPSR, 0x01000000)  returns 0x00 (0000ms, 0780ms total)
T20AC 000:850 JLINK_WriteReg(MSP, 0x20000800)  returns 0x00 (0000ms, 0780ms total)
T20AC 000:850 JLINK_WriteReg(PSP, 0x20000800)  returns 0x00 (0000ms, 0780ms total)
T20AC 000:850 JLINK_WriteReg(CFBP, 0x00000000)  returns 0x00 (0000ms, 0780ms total)
T20AC 000:850 JLINK_SetBPEx(Addr = 0x20000000, Type = 0xFFFFFFF2)  returns 0x00000002 (0000ms, 0780ms total)
T20AC 000:850 JLINK_Go() -- CPU_WriteMem(4 bytes @ 0xE0002008) -- CPU_WriteMem(4 bytes @ 0xE000200C) -- CPU_WriteMem(4 bytes @ 0xE0002010) -- CPU_WriteMem(4 bytes @ 0xE0002014) -- CPU_WriteMem(4 bytes @ 0xE0002018) -- CPU_WriteMem(4 bytes @ 0xE000201C) (0008ms, 0780ms total)
T20AC 000:858 JLINK_IsHalted()  returns FALSE (0001ms, 0788ms total)
T20AC 000:909 JLINK_IsHalted() -- CPU_ReadMem(2 bytes @ 0x20000000)  returns TRUE (0010ms, 0788ms total)
T20AC 000:919 JLINK_ReadReg(R15)  returns 0x20000000 (0000ms, 0788ms total)
T20AC 000:919 JLINK_ClrBPEx(BPHandle = 0x00000002)  returns 0x00 (0000ms, 0788ms total)
T20AC 000:919 JLINK_ReadReg(R0)  returns 0x00000000 (0000ms, 0788ms total)
T20AC 000:971 JLINK_WriteReg(R0, 0x00000001)  returns 0x00 (0000ms, 0788ms total)
T20AC 000:971 JLINK_WriteReg(R1, 0x007A1200)  returns 0x00 (0000ms, 0788ms total)
T20AC 000:971 JLINK_WriteReg(R2, 0x00000001)  returns 0x00 (0000ms, 0788ms total)
T20AC 000:971 JLINK_WriteReg(R3, 0x00000000)  returns 0x00 (0000ms, 0788ms total)
T20AC 000:971 JLINK_WriteReg(R4, 0x00000000)  returns 0x00 (0000ms, 0788ms total)
T20AC 000:972 JLINK_WriteReg(R5, 0x00000000)  returns 0x00 (0000ms, 0788ms total)
T20AC 000:972 JLINK_WriteReg(R6, 0x00000000)  returns 0x00 (0000ms, 0788ms total)
T20AC 000:972 JLINK_WriteReg(R7, 0x00000000)  returns 0x00 (0000ms, 0788ms total)
T20AC 000:972 JLINK_WriteReg(R8, 0x00000000)  returns 0x00 (0000ms, 0788ms total)
T20AC 000:972 JLINK_WriteReg(R9, 0x20000160)  returns 0x00 (0000ms, 0788ms total)
T20AC 000:972 JLINK_WriteReg(R10, 0x00000000)  returns 0x00 (0000ms, 0788ms total)
T20AC 000:972 JLINK_WriteReg(R11, 0x00000000)  returns 0x00 (0000ms, 0788ms total)
T20AC 000:972 JLINK_WriteReg(R12, 0x00000000)  returns 0x00 (0000ms, 0788ms total)
T20AC 000:972 JLINK_WriteReg(R13, 0x20000800)  returns 0x00 (0000ms, 0788ms total)
T20AC 000:972 JLINK_WriteReg(R14, 0x20000001)  returns 0x00 (0000ms, 0788ms total)
T20AC 000:972 JLINK_WriteReg(R15, 0x2000006A)  returns 0x00 (0000ms, 0788ms total)
T20AC 000:972 JLINK_WriteReg(XPSR, 0x01000000)  returns 0x00 (0000ms, 0788ms total)
T20AC 000:972 JLINK_WriteReg(MSP, 0x20000800)  returns 0x00 (0000ms, 0788ms total)
T20AC 000:972 JLINK_WriteReg(PSP, 0x20000800)  returns 0x00 (0000ms, 0788ms total)
T20AC 000:972 JLINK_WriteReg(CFBP, 0x00000000)  returns 0x00 (0000ms, 0788ms total)
T20AC 000:972 JLINK_SetBPEx(Addr = 0x20000000, Type = 0xFFFFFFF2)  returns 0x00000003 (0000ms, 0788ms total)
T20AC 000:972 JLINK_Go() -- CPU_WriteMem(4 bytes @ 0xE0002008) -- CPU_WriteMem(4 bytes @ 0xE000200C) -- CPU_WriteMem(4 bytes @ 0xE0002010) -- CPU_WriteMem(4 bytes @ 0xE0002014) -- CPU_WriteMem(4 bytes @ 0xE0002018) -- CPU_WriteMem(4 bytes @ 0xE000201C) (0009ms, 0788ms total)
T20AC 000:981 JLINK_IsHalted() -- CPU_ReadMem(2 bytes @ 0x20000000)  returns TRUE (0010ms, 0797ms total)
T20AC 000:991 JLINK_ReadReg(R15)  returns 0x20000000 (0000ms, 0797ms total)
T20AC 000:991 JLINK_ClrBPEx(BPHandle = 0x00000003)  returns 0x00 (0000ms, 0797ms total)
T20AC 000:991 JLINK_ReadReg(R0)  returns 0x00000000 (0000ms, 0797ms total)
T20AC 001:000 JLINK_WriteMem(0x20000000, 0x0164 Bytes, ...) -- Data:  00 BE 0A E0 0D 78 2D 06 68 40 08 24 40 00 00 D3 ... -- CPU_WriteMem(356 bytes @ 0x20000000)  returns 0x164 (0005ms, 0797ms total)
T20AC 001:005 JLINK_WriteReg(R0, 0x08000000)  returns 0x00 (0001ms, 0802ms total)
T20AC 001:006 JLINK_WriteReg(R1, 0x007A1200)  returns 0x00 (0000ms, 0803ms total)
T20AC 001:006 JLINK_WriteReg(R2, 0x00000002)  returns 0x00 (0000ms, 0803ms total)
T20AC 001:006 JLINK_WriteReg(R3, 0x00000000)  returns 0x00 (0000ms, 0803ms total)
T20AC 001:006 JLINK_WriteReg(R4, 0x00000000)  returns 0x00 (0000ms, 0803ms total)
T20AC 001:006 JLINK_WriteReg(R5, 0x00000000)  returns 0x00 (0000ms, 0803ms total)
T20AC 001:006 JLINK_WriteReg(R6, 0x00000000)  returns 0x00 (0000ms, 0803ms total)
T20AC 001:006 JLINK_WriteReg(R7, 0x00000000)  returns 0x00 (0000ms, 0803ms total)
T20AC 001:006 JLINK_WriteReg(R8, 0x00000000)  returns 0x00 (0000ms, 0803ms total)
T20AC 001:006 JLINK_WriteReg(R9, 0x20000160)  returns 0x00 (0000ms, 0803ms total)
T20AC 001:006 JLINK_WriteReg(R10, 0x00000000)  returns 0x00 (0000ms, 0803ms total)
T20AC 001:007 JLINK_WriteReg(R11, 0x00000000)  returns 0x00 (0000ms, 0803ms total)
T20AC 001:007 JLINK_WriteReg(R12, 0x00000000)  returns 0x00 (0000ms, 0803ms total)
T20AC 001:007 JLINK_WriteReg(R13, 0x20000800)  returns 0x00 (0000ms, 0803ms total)
T20AC 001:007 JLINK_WriteReg(R14, 0x20000001)  returns 0x00 (0000ms, 0803ms total)
T20AC 001:007 JLINK_WriteReg(R15, 0x20000038)  returns 0x00 (0000ms, 0803ms total)
T20AC 001:007 JLINK_WriteReg(XPSR, 0x01000000)  returns 0x00 (0000ms, 0803ms total)
T20AC 001:007 JLINK_WriteReg(MSP, 0x20000800)  returns 0x00 (0000ms, 0803ms total)
T20AC 001:007 JLINK_WriteReg(PSP, 0x20000800)  returns 0x00 (0000ms, 0803ms total)
T20AC 001:007 JLINK_WriteReg(CFBP, 0x00000000)  returns 0x00 (0000ms, 0803ms total)
T20AC 001:007 JLINK_SetBPEx(Addr = 0x20000000, Type = 0xFFFFFFF2) -- CPU_ReadMem(2 bytes @ 0x20000000)  returns 0x00000004 (0001ms, 0803ms total)
T20AC 001:009 JLINK_Go() -- CPU_WriteMem(2 bytes @ 0x20000000) -- CPU_WriteMem(4 bytes @ 0xE0002008) -- CPU_WriteMem(4 bytes @ 0xE000200C) -- CPU_WriteMem(4 bytes @ 0xE0002010) -- CPU_WriteMem(4 bytes @ 0xE0002014) -- CPU_WriteMem(4 bytes @ 0xE0002018) -- CPU_WriteMem(4 bytes @ 0xE000201C) (0010ms, 0804ms total)
T20AC 001:019 JLINK_IsHalted() -- CPU_ReadMem(2 bytes @ 0x20000000)  returns TRUE (0010ms, 0814ms total)
T20AC 001:029 JLINK_ReadReg(R15)  returns 0x20000000 (0000ms, 0814ms total)
T20AC 001:029 JLINK_ClrBPEx(BPHandle = 0x00000004)  returns 0x00 (0001ms, 0814ms total)
T20AC 001:030 JLINK_ReadReg(R0)  returns 0x00000000 (0000ms, 0815ms total)
T20AC 001:030 JLINK_WriteMem(0x20000164, 0x0400 Bytes, ...) -- Data:  00 04 00 20 AB 13 00 08 05 19 00 08 07 19 00 08 ... -- CPU_WriteMem(1024 bytes @ 0x20000164)  returns 0x400 (0013ms, 0815ms total)
T20AC 001:043 JLINK_WriteReg(R0, 0x08000000)  returns 0x00 (0000ms, 0828ms total)
T20AC 001:043 JLINK_WriteReg(R1, 0x00000400)  returns 0x00 (0000ms, 0828ms total)
T20AC 001:043 JLINK_WriteReg(R2, 0x20000164)  returns 0x00 (0000ms, 0828ms total)
T20AC 001:043 JLINK_WriteReg(R3, 0x00000000)  returns 0x00 (0000ms, 0828ms total)
T20AC 001:043 JLINK_WriteReg(R4, 0x00000000)  returns 0x00 (0000ms, 0828ms total)
T20AC 001:043 JLINK_WriteReg(R5, 0x00000000)  returns 0x00 (0000ms, 0828ms total)
T20AC 001:043 JLINK_WriteReg(R6, 0x00000000)  returns 0x00 (0000ms, 0828ms total)
T20AC 001:043 JLINK_WriteReg(R7, 0x00000000)  returns 0x00 (0000ms, 0828ms total)
T20AC 001:043 JLINK_WriteReg(R8, 0x00000000)  returns 0x00 (0000ms, 0828ms total)
T20AC 001:043 JLINK_WriteReg(R9, 0x20000160)  returns 0x00 (0001ms, 0828ms total)
T20AC 001:044 JLINK_WriteReg(R10, 0x00000000)  returns 0x00 (0000ms, 0829ms total)
T20AC 001:044 JLINK_WriteReg(R11, 0x00000000)  returns 0x00 (0000ms, 0829ms total)
T20AC 001:044 JLINK_WriteReg(R12, 0x00000000)  returns 0x00 (0000ms, 0829ms total)
T20AC 001:044 JLINK_WriteReg(R13, 0x20000800)  returns 0x00 (0000ms, 0829ms total)
T20AC 001:044 JLINK_WriteReg(R14, 0x20000001)  returns 0x00 (0000ms, 0829ms total)
T20AC 001:044 JLINK_WriteReg(R15, 0x200000F4)  returns 0x00 (0000ms, 0829ms total)
T20AC 001:044 JLINK_WriteReg(XPSR, 0x01000000)  returns 0x00 (0000ms, 0829ms total)
T20AC 001:044 JLINK_WriteReg(MSP, 0x20000800)  returns 0x00 (0000ms, 0829ms total)
T20AC 001:044 JLINK_WriteReg(PSP, 0x20000800)  returns 0x00 (0000ms, 0829ms total)
T20AC 001:044 JLINK_WriteReg(CFBP, 0x00000000)  returns 0x00 (0000ms, 0829ms total)
T20AC 001:044 JLINK_SetBPEx(Addr = 0x20000000, Type = 0xFFFFFFF2)  returns 0x00000005 (0000ms, 0829ms total)
T20AC 001:044 JLINK_Go() -- CPU_WriteMem(4 bytes @ 0xE0002008) -- CPU_WriteMem(4 bytes @ 0xE000200C) -- CPU_WriteMem(4 bytes @ 0xE0002010) -- CPU_WriteMem(4 bytes @ 0xE0002014) -- CPU_WriteMem(4 bytes @ 0xE0002018) -- CPU_WriteMem(4 bytes @ 0xE000201C) (0009ms, 0829ms total)
T20AC 001:053 JLINK_IsHalted()  returns FALSE (0001ms, 0838ms total)
T20AC 001:104 JLINK_IsHalted() -- CPU_ReadMem(2 bytes @ 0x20000000)  returns TRUE (0010ms, 0838ms total)
T20AC 001:114 JLINK_ReadReg(R15)  returns 0x20000000 (0000ms, 0838ms total)
T20AC 001:114 JLINK_ClrBPEx(BPHandle = 0x00000005)  returns 0x00 (0000ms, 0838ms total)
T20AC 001:114 JLINK_ReadReg(R0)  returns 0x00000000 (0000ms, 0838ms total)
T20AC 001:115 JLINK_WriteMem(0x20000164, 0x0400 Bytes, ...) -- Data:  03 FA 06 F6 B1 43 41 F0 70 61 22 B1 46 0D 36 01 ... -- CPU_WriteMem(1024 bytes @ 0x20000164)  returns 0x400 (0014ms, 0838ms total)
T20AC 001:129 JLINK_WriteReg(R0, 0x08000400)  returns 0x00 (0000ms, 0852ms total)
T20AC 001:129 JLINK_WriteReg(R1, 0x00000400)  returns 0x00 (0000ms, 0852ms total)
T20AC 001:129 JLINK_WriteReg(R2, 0x20000164)  returns 0x00 (0000ms, 0852ms total)
T20AC 001:129 JLINK_WriteReg(R3, 0x00000000)  returns 0x00 (0000ms, 0852ms total)
T20AC 001:129 JLINK_WriteReg(R4, 0x00000000)  returns 0x00 (0000ms, 0852ms total)
T20AC 001:129 JLINK_WriteReg(R5, 0x00000000)  returns 0x00 (0000ms, 0852ms total)
T20AC 001:129 JLINK_WriteReg(R6, 0x00000000)  returns 0x00 (0000ms, 0852ms total)
T20AC 001:129 JLINK_WriteReg(R7, 0x00000000)  returns 0x00 (0000ms, 0852ms total)
T20AC 001:129 JLINK_WriteReg(R8, 0x00000000)  returns 0x00 (0000ms, 0852ms total)
T20AC 001:129 JLINK_WriteReg(R9, 0x20000160)  returns 0x00 (0000ms, 0852ms total)
T20AC 001:129 JLINK_WriteReg(R10, 0x00000000)  returns 0x00 (0000ms, 0852ms total)
T20AC 001:129 JLINK_WriteReg(R11, 0x00000000)  returns 0x00 (0000ms, 0852ms total)
T20AC 001:129 JLINK_WriteReg(R12, 0x00000000)  returns 0x00 (0000ms, 0852ms total)
T20AC 001:129 JLINK_WriteReg(R13, 0x20000800)  returns 0x00 (0000ms, 0852ms total)
T20AC 001:129 JLINK_WriteReg(R14, 0x20000001)  returns 0x00 (0000ms, 0852ms total)
T20AC 001:129 JLINK_WriteReg(R15, 0x200000F4)  returns 0x00 (0000ms, 0852ms total)
T20AC 001:129 JLINK_WriteReg(XPSR, 0x01000000)  returns 0x00 (0000ms, 0852ms total)
T20AC 001:129 JLINK_WriteReg(MSP, 0x20000800)  returns 0x00 (0000ms, 0852ms total)
T20AC 001:129 JLINK_WriteReg(PSP, 0x20000800)  returns 0x00 (0000ms, 0852ms total)
T20AC 001:129 JLINK_WriteReg(CFBP, 0x00000000)  returns 0x00 (0000ms, 0852ms total)
T20AC 001:129 JLINK_SetBPEx(Addr = 0x20000000, Type = 0xFFFFFFF2)  returns 0x00000006 (0000ms, 0852ms total)
T20AC 001:130 JLINK_Go() -- CPU_WriteMem(4 bytes @ 0xE0002008) -- CPU_WriteMem(4 bytes @ 0xE000200C) -- CPU_WriteMem(4 bytes @ 0xE0002010) -- CPU_WriteMem(4 bytes @ 0xE0002014) -- CPU_WriteMem(4 bytes @ 0xE0002018) -- CPU_WriteMem(4 bytes @ 0xE000201C) (0009ms, 0853ms total)
T20AC 001:139 JLINK_IsHalted()  returns FALSE (0001ms, 0862ms total)
T20AC 001:190 JLINK_IsHalted() -- CPU_ReadMem(2 bytes @ 0x20000000)  returns TRUE (0011ms, 0862ms total)
T20AC 001:201 JLINK_ReadReg(R15)  returns 0x20000000 (0000ms, 0862ms total)
T20AC 001:201 JLINK_ClrBPEx(BPHandle = 0x00000006)  returns 0x00 (0000ms, 0862ms total)
T20AC 001:201 JLINK_ReadReg(R0)  returns 0x00000000 (0000ms, 0862ms total)
T20AC 001:202 JLINK_WriteMem(0x20000164, 0x0400 Bytes, ...) -- Data:  00 09 3D 00 00 00 00 20 10 00 00 20 40 04 42 42 ... -- CPU_WriteMem(1024 bytes @ 0x20000164)  returns 0x400 (0013ms, 0862ms total)
T20AC 001:215 JLINK_WriteReg(R0, 0x08000800)  returns 0x00 (0000ms, 0875ms total)
T20AC 001:215 JLINK_WriteReg(R1, 0x00000400)  returns 0x00 (0000ms, 0875ms total)
T20AC 001:215 JLINK_WriteReg(R2, 0x20000164)  returns 0x00 (0000ms, 0875ms total)
T20AC 001:215 JLINK_WriteReg(R3, 0x00000000)  returns 0x00 (0000ms, 0875ms total)
T20AC 001:216 JLINK_WriteReg(R4, 0x00000000)  returns 0x00 (0000ms, 0876ms total)
T20AC 001:216 JLINK_WriteReg(R5, 0x00000000)  returns 0x00 (0000ms, 0876ms total)
T20AC 001:216 JLINK_WriteReg(R6, 0x00000000)  returns 0x00 (0000ms, 0876ms total)
T20AC 001:216 JLINK_WriteReg(R7, 0x00000000)  returns 0x00 (0000ms, 0876ms total)
T20AC 001:216 JLINK_WriteReg(R8, 0x00000000)  returns 0x00 (0000ms, 0876ms total)
T20AC 001:216 JLINK_WriteReg(R9, 0x20000160)  returns 0x00 (0000ms, 0876ms total)
T20AC 001:216 JLINK_WriteReg(R10, 0x00000000)  returns 0x00 (0000ms, 0876ms total)
T20AC 001:216 JLINK_WriteReg(R11, 0x00000000)  returns 0x00 (0000ms, 0876ms total)
T20AC 001:216 JLINK_WriteReg(R12, 0x00000000)  returns 0x00 (0000ms, 0876ms total)
T20AC 001:216 JLINK_WriteReg(R13, 0x20000800)  returns 0x00 (0000ms, 0876ms total)
T20AC 001:216 JLINK_WriteReg(R14, 0x20000001)  returns 0x00 (0000ms, 0876ms total)
T20AC 001:216 JLINK_WriteReg(R15, 0x200000F4)  returns 0x00 (0000ms, 0876ms total)
T20AC 001:216 JLINK_WriteReg(XPSR, 0x01000000)  returns 0x00 (0000ms, 0876ms total)
T20AC 001:216 JLINK_WriteReg(MSP, 0x20000800)  returns 0x00 (0000ms, 0876ms total)
T20AC 001:216 JLINK_WriteReg(PSP, 0x20000800)  returns 0x00 (0000ms, 0876ms total)
T20AC 001:216 JLINK_WriteReg(CFBP, 0x00000000)  returns 0x00 (0000ms, 0876ms total)
T20AC 001:216 JLINK_SetBPEx(Addr = 0x20000000, Type = 0xFFFFFFF2)  returns 0x00000007 (0000ms, 0876ms total)
T20AC 001:216 JLINK_Go() -- CPU_WriteMem(4 bytes @ 0xE0002008) -- CPU_WriteMem(4 bytes @ 0xE000200C) -- CPU_WriteMem(4 bytes @ 0xE0002010) -- CPU_WriteMem(4 bytes @ 0xE0002014) -- CPU_WriteMem(4 bytes @ 0xE0002018) -- CPU_WriteMem(4 bytes @ 0xE000201C) (0010ms, 0876ms total)
T20AC 001:226 JLINK_IsHalted()  returns FALSE (0001ms, 0886ms total)
T20AC 001:277 JLINK_IsHalted() -- CPU_ReadMem(2 bytes @ 0x20000000)  returns TRUE (0011ms, 0886ms total)
T20AC 001:288 JLINK_ReadReg(R15)  returns 0x20000000 (0000ms, 0886ms total)
T20AC 001:288 JLINK_ClrBPEx(BPHandle = 0x00000007)  returns 0x00 (0000ms, 0886ms total)
T20AC 001:288 JLINK_ReadReg(R0)  returns 0x00000000 (0000ms, 0886ms total)
T20AC 001:289 JLINK_WriteMem(0x20000164, 0x0400 Bytes, ...) -- Data:  0B 42 01 D0 01 20 00 E0 00 20 70 47 CA 43 02 80 ... -- CPU_WriteMem(1024 bytes @ 0x20000164)  returns 0x400 (0013ms, 0886ms total)
T20AC 001:302 JLINK_WriteReg(R0, 0x08000C00)  returns 0x00 (0000ms, 0899ms total)
T20AC 001:302 JLINK_WriteReg(R1, 0x00000400)  returns 0x00 (0000ms, 0899ms total)
T20AC 001:302 JLINK_WriteReg(R2, 0x20000164)  returns 0x00 (0000ms, 0899ms total)
T20AC 001:302 JLINK_WriteReg(R3, 0x00000000)  returns 0x00 (0001ms, 0899ms total)
T20AC 001:303 JLINK_WriteReg(R4, 0x00000000)  returns 0x00 (0000ms, 0900ms total)
T20AC 001:303 JLINK_WriteReg(R5, 0x00000000)  returns 0x00 (0000ms, 0900ms total)
T20AC 001:303 JLINK_WriteReg(R6, 0x00000000)  returns 0x00 (0000ms, 0900ms total)
T20AC 001:303 JLINK_WriteReg(R7, 0x00000000)  returns 0x00 (0000ms, 0900ms total)
T20AC 001:303 JLINK_WriteReg(R8, 0x00000000)  returns 0x00 (0000ms, 0900ms total)
T20AC 001:303 JLINK_WriteReg(R9, 0x20000160)  returns 0x00 (0000ms, 0900ms total)
T20AC 001:303 JLINK_WriteReg(R10, 0x00000000)  returns 0x00 (0000ms, 0900ms total)
T20AC 001:303 JLINK_WriteReg(R11, 0x00000000)  returns 0x00 (0000ms, 0900ms total)
T20AC 001:303 JLINK_WriteReg(R12, 0x00000000)  returns 0x00 (0000ms, 0900ms total)
T20AC 001:303 JLINK_WriteReg(R13, 0x20000800)  returns 0x00 (0000ms, 0900ms total)
T20AC 001:303 JLINK_WriteReg(R14, 0x20000001)  returns 0x00 (0000ms, 0900ms total)
T20AC 001:303 JLINK_WriteReg(R15, 0x200000F4)  returns 0x00 (0000ms, 0900ms total)
T20AC 001:303 JLINK_WriteReg(XPSR, 0x01000000)  returns 0x00 (0000ms, 0900ms total)
T20AC 001:303 JLINK_WriteReg(MSP, 0x20000800)  returns 0x00 (0000ms, 0900ms total)
T20AC 001:303 JLINK_WriteReg(PSP, 0x20000800)  returns 0x00 (0000ms, 0900ms total)
T20AC 001:303 JLINK_WriteReg(CFBP, 0x00000000)  returns 0x00 (0000ms, 0900ms total)
T20AC 001:303 JLINK_SetBPEx(Addr = 0x20000000, Type = 0xFFFFFFF2)  returns 0x00000008 (0000ms, 0900ms total)
T20AC 001:303 JLINK_Go() -- CPU_WriteMem(4 bytes @ 0xE0002008) -- CPU_WriteMem(4 bytes @ 0xE000200C) -- CPU_WriteMem(4 bytes @ 0xE0002010) -- CPU_WriteMem(4 bytes @ 0xE0002014) -- CPU_WriteMem(4 bytes @ 0xE0002018) -- CPU_WriteMem(4 bytes @ 0xE000201C) (0010ms, 0900ms total)
T20AC 001:313 JLINK_IsHalted()  returns FALSE (0001ms, 0910ms total)
T20AC 001:364 JLINK_IsHalted() -- CPU_ReadMem(2 bytes @ 0x20000000)  returns TRUE (0011ms, 0910ms total)
T20AC 001:375 JLINK_ReadReg(R15)  returns 0x20000000 (0000ms, 0910ms total)
T20AC 001:375 JLINK_ClrBPEx(BPHandle = 0x00000008)  returns 0x00 (0000ms, 0910ms total)
T20AC 001:375 JLINK_ReadReg(R0)  returns 0x00000000 (0000ms, 0910ms total)
T20AC 001:376 JLINK_WriteMem(0x20000164, 0x0400 Bytes, ...) -- Data:  1A 43 02 80 83 8B 4F F2 FF 74 23 40 83 83 0B 8A ... -- CPU_WriteMem(1024 bytes @ 0x20000164)  returns 0x400 (0013ms, 0910ms total)
T20AC 001:389 JLINK_WriteReg(R0, 0x08001000)  returns 0x00 (0000ms, 0923ms total)
T20AC 001:389 JLINK_WriteReg(R1, 0x00000400)  returns 0x00 (0000ms, 0923ms total)
T20AC 001:389 JLINK_WriteReg(R2, 0x20000164)  returns 0x00 (0000ms, 0923ms total)
T20AC 001:389 JLINK_WriteReg(R3, 0x00000000)  returns 0x00 (0000ms, 0923ms total)
T20AC 001:389 JLINK_WriteReg(R4, 0x00000000)  returns 0x00 (0000ms, 0923ms total)
T20AC 001:389 JLINK_WriteReg(R5, 0x00000000)  returns 0x00 (0000ms, 0923ms total)
T20AC 001:389 JLINK_WriteReg(R6, 0x00000000)  returns 0x00 (0000ms, 0923ms total)
T20AC 001:389 JLINK_WriteReg(R7, 0x00000000)  returns 0x00 (0000ms, 0923ms total)
T20AC 001:389 JLINK_WriteReg(R8, 0x00000000)  returns 0x00 (0000ms, 0923ms total)
T20AC 001:389 JLINK_WriteReg(R9, 0x20000160)  returns 0x00 (0000ms, 0923ms total)
T20AC 001:389 JLINK_WriteReg(R10, 0x00000000)  returns 0x00 (0000ms, 0923ms total)
T20AC 001:389 JLINK_WriteReg(R11, 0x00000000)  returns 0x00 (0000ms, 0923ms total)
T20AC 001:389 JLINK_WriteReg(R12, 0x00000000)  returns 0x00 (0000ms, 0923ms total)
T20AC 001:389 JLINK_WriteReg(R13, 0x20000800)  returns 0x00 (0000ms, 0923ms total)
T20AC 001:389 JLINK_WriteReg(R14, 0x20000001)  returns 0x00 (0000ms, 0923ms total)
T20AC 001:389 JLINK_WriteReg(R15, 0x200000F4)  returns 0x00 (0000ms, 0923ms total)
T20AC 001:390 JLINK_WriteReg(XPSR, 0x01000000)  returns 0x00 (0000ms, 0923ms total)
T20AC 001:390 JLINK_WriteReg(MSP, 0x20000800)  returns 0x00 (0000ms, 0923ms total)
T20AC 001:390 JLINK_WriteReg(PSP, 0x20000800)  returns 0x00 (0000ms, 0923ms total)
T20AC 001:390 JLINK_WriteReg(CFBP, 0x00000000)  returns 0x00 (0000ms, 0923ms total)
T20AC 001:390 JLINK_SetBPEx(Addr = 0x20000000, Type = 0xFFFFFFF2)  returns 0x00000009 (0000ms, 0923ms total)
T20AC 001:390 JLINK_Go() -- CPU_WriteMem(4 bytes @ 0xE0002008) -- CPU_WriteMem(4 bytes @ 0xE000200C) -- CPU_WriteMem(4 bytes @ 0xE0002010) -- CPU_WriteMem(4 bytes @ 0xE0002014) -- CPU_WriteMem(4 bytes @ 0xE0002018) -- CPU_WriteMem(4 bytes @ 0xE000201C) (0009ms, 0923ms total)
T20AC 001:399 JLINK_IsHalted()  returns FALSE (0001ms, 0932ms total)
T20AC 001:450 JLINK_IsHalted() -- CPU_ReadMem(2 bytes @ 0x20000000)  returns TRUE (0011ms, 0932ms total)
T20AC 001:461 JLINK_ReadReg(R15)  returns 0x20000000 (0000ms, 0932ms total)
T20AC 001:461 JLINK_ClrBPEx(BPHandle = 0x00000009)  returns 0x00 (0000ms, 0932ms total)
T20AC 001:461 JLINK_ReadReg(R0)  returns 0x00000000 (0000ms, 0932ms total)
T20AC 001:462 JLINK_WriteMem(0x20000164, 0x0400 Bytes, ...) -- Data:  F5 48 C0 69 40 F0 10 00 F3 49 C8 61 40 F2 F3 10 ... -- CPU_WriteMem(1024 bytes @ 0x20000164)  returns 0x400 (0013ms, 0932ms total)
T20AC 001:475 JLINK_WriteReg(R0, 0x08001400)  returns 0x00 (0000ms, 0945ms total)
T20AC 001:475 JLINK_WriteReg(R1, 0x00000400)  returns 0x00 (0000ms, 0945ms total)
T20AC 001:475 JLINK_WriteReg(R2, 0x20000164)  returns 0x00 (0000ms, 0945ms total)
T20AC 001:475 JLINK_WriteReg(R3, 0x00000000)  returns 0x00 (0000ms, 0945ms total)
T20AC 001:475 JLINK_WriteReg(R4, 0x00000000)  returns 0x00 (0000ms, 0945ms total)
T20AC 001:475 JLINK_WriteReg(R5, 0x00000000)  returns 0x00 (0000ms, 0945ms total)
T20AC 001:475 JLINK_WriteReg(R6, 0x00000000)  returns 0x00 (0000ms, 0945ms total)
T20AC 001:475 JLINK_WriteReg(R7, 0x00000000)  returns 0x00 (0000ms, 0945ms total)
T20AC 001:475 JLINK_WriteReg(R8, 0x00000000)  returns 0x00 (0000ms, 0945ms total)
T20AC 001:475 JLINK_WriteReg(R9, 0x20000160)  returns 0x00 (0001ms, 0945ms total)
T20AC 001:476 JLINK_WriteReg(R10, 0x00000000)  returns 0x00 (0000ms, 0946ms total)
T20AC 001:476 JLINK_WriteReg(R11, 0x00000000)  returns 0x00 (0000ms, 0946ms total)
T20AC 001:476 JLINK_WriteReg(R12, 0x00000000)  returns 0x00 (0000ms, 0946ms total)
T20AC 001:476 JLINK_WriteReg(R13, 0x20000800)  returns 0x00 (0000ms, 0946ms total)
T20AC 001:476 JLINK_WriteReg(R14, 0x20000001)  returns 0x00 (0000ms, 0946ms total)
T20AC 001:476 JLINK_WriteReg(R15, 0x200000F4)  returns 0x00 (0000ms, 0946ms total)
T20AC 001:476 JLINK_WriteReg(XPSR, 0x01000000)  returns 0x00 (0000ms, 0946ms total)
T20AC 001:476 JLINK_WriteReg(MSP, 0x20000800)  returns 0x00 (0000ms, 0946ms total)
T20AC 001:476 JLINK_WriteReg(PSP, 0x20000800)  returns 0x00 (0000ms, 0946ms total)
T20AC 001:476 JLINK_WriteReg(CFBP, 0x00000000)  returns 0x00 (0000ms, 0946ms total)
T20AC 001:476 JLINK_SetBPEx(Addr = 0x20000000, Type = 0xFFFFFFF2)  returns 0x0000000A (0000ms, 0946ms total)
T20AC 001:476 JLINK_Go() -- CPU_WriteMem(4 bytes @ 0xE0002008) -- CPU_WriteMem(4 bytes @ 0xE000200C) -- CPU_WriteMem(4 bytes @ 0xE0002010) -- CPU_WriteMem(4 bytes @ 0xE0002014) -- CPU_WriteMem(4 bytes @ 0xE0002018) -- CPU_WriteMem(4 bytes @ 0xE000201C) (0009ms, 0946ms total)
T20AC 001:486 JLINK_IsHalted()  returns FALSE (0000ms, 0955ms total)
T20AC 001:536 JLINK_IsHalted() -- CPU_ReadMem(2 bytes @ 0x20000000)  returns TRUE (0011ms, 0955ms total)
T20AC 001:547 JLINK_ReadReg(R15)  returns 0x20000000 (0000ms, 0955ms total)
T20AC 001:547 JLINK_ClrBPEx(BPHandle = 0x0000000A)  returns 0x00 (0000ms, 0955ms total)
T20AC 001:547 JLINK_ReadReg(R0)  returns 0x00000000 (0000ms, 0955ms total)
T20AC 001:548 JLINK_WriteMem(0x20000164, 0x0400 Bytes, ...) -- Data:  16 00 00 20 19 00 00 20 78 00 00 20 CE D8 CE D8 ... -- CPU_WriteMem(1024 bytes @ 0x20000164)  returns 0x400 (0014ms, 0955ms total)
T20AC 001:562 JLINK_WriteReg(R0, 0x08001800)  returns 0x00 (0000ms, 0969ms total)
T20AC 001:562 JLINK_WriteReg(R1, 0x00000400)  returns 0x00 (0000ms, 0969ms total)
T20AC 001:562 JLINK_WriteReg(R2, 0x20000164)  returns 0x00 (0000ms, 0969ms total)
T20AC 001:562 JLINK_WriteReg(R3, 0x00000000)  returns 0x00 (0000ms, 0969ms total)
T20AC 001:562 JLINK_WriteReg(R4, 0x00000000)  returns 0x00 (0000ms, 0969ms total)
T20AC 001:562 JLINK_WriteReg(R5, 0x00000000)  returns 0x00 (0000ms, 0969ms total)
T20AC 001:562 JLINK_WriteReg(R6, 0x00000000)  returns 0x00 (0000ms, 0969ms total)
T20AC 001:562 JLINK_WriteReg(R7, 0x00000000)  returns 0x00 (0000ms, 0969ms total)
T20AC 001:562 JLINK_WriteReg(R8, 0x00000000)  returns 0x00 (0000ms, 0969ms total)
T20AC 001:562 JLINK_WriteReg(R9, 0x20000160)  returns 0x00 (0000ms, 0969ms total)
T20AC 001:562 JLINK_WriteReg(R10, 0x00000000)  returns 0x00 (0000ms, 0969ms total)
T20AC 001:562 JLINK_WriteReg(R11, 0x00000000)  returns 0x00 (0000ms, 0969ms total)
T20AC 001:562 JLINK_WriteReg(R12, 0x00000000)  returns 0x00 (0000ms, 0969ms total)
T20AC 001:562 JLINK_WriteReg(R13, 0x20000800)  returns 0x00 (0000ms, 0969ms total)
T20AC 001:562 JLINK_WriteReg(R14, 0x20000001)  returns 0x00 (0000ms, 0969ms total)
T20AC 001:562 JLINK_WriteReg(R15, 0x200000F4)  returns 0x00 (0000ms, 0969ms total)
T20AC 001:562 JLINK_WriteReg(XPSR, 0x01000000)  returns 0x00 (0000ms, 0969ms total)
T20AC 001:562 JLINK_WriteReg(MSP, 0x20000800)  returns 0x00 (0000ms, 0969ms total)
T20AC 001:562 JLINK_WriteReg(PSP, 0x20000800)  returns 0x00 (0000ms, 0969ms total)
T20AC 001:562 JLINK_WriteReg(CFBP, 0x00000000)  returns 0x00 (0000ms, 0969ms total)
T20AC 001:562 JLINK_SetBPEx(Addr = 0x20000000, Type = 0xFFFFFFF2)  returns 0x0000000B (0001ms, 0969ms total)
T20AC 001:563 JLINK_Go() -- CPU_WriteMem(4 bytes @ 0xE0002008) -- CPU_WriteMem(4 bytes @ 0xE000200C) -- CPU_WriteMem(4 bytes @ 0xE0002010) -- CPU_WriteMem(4 bytes @ 0xE0002014) -- CPU_WriteMem(4 bytes @ 0xE0002018) -- CPU_WriteMem(4 bytes @ 0xE000201C) (0009ms, 0970ms total)
T20AC 001:572 JLINK_IsHalted()  returns FALSE (0001ms, 0979ms total)
T20AC 001:623 JLINK_IsHalted() -- CPU_ReadMem(2 bytes @ 0x20000000)  returns TRUE (0010ms, 0979ms total)
T20AC 001:633 JLINK_ReadReg(R15)  returns 0x20000000 (0000ms, 0979ms total)
T20AC 001:633 JLINK_ClrBPEx(BPHandle = 0x0000000B)  returns 0x00 (0000ms, 0979ms total)
T20AC 001:633 JLINK_ReadReg(R0)  returns 0x00000000 (0000ms, 0979ms total)
T20AC 001:634 JLINK_WriteMem(0x20000164, 0x0400 Bytes, ...) -- Data:  68 48 FF F7 06 F8 20 B1 01 F0 EE FF 00 20 54 49 ... -- CPU_WriteMem(1024 bytes @ 0x20000164)  returns 0x400 (0013ms, 0979ms total)
T20AC 001:647 JLINK_WriteReg(R0, 0x08001C00)  returns 0x00 (0000ms, 0992ms total)
T20AC 001:647 JLINK_WriteReg(R1, 0x00000400)  returns 0x00 (0000ms, 0992ms total)
T20AC 001:647 JLINK_WriteReg(R2, 0x20000164)  returns 0x00 (0000ms, 0992ms total)
T20AC 001:647 JLINK_WriteReg(R3, 0x00000000)  returns 0x00 (0000ms, 0992ms total)
T20AC 001:647 JLINK_WriteReg(R4, 0x00000000)  returns 0x00 (0001ms, 0992ms total)
T20AC 001:648 JLINK_WriteReg(R5, 0x00000000)  returns 0x00 (0000ms, 0993ms total)
T20AC 001:648 JLINK_WriteReg(R6, 0x00000000)  returns 0x00 (0000ms, 0993ms total)
T20AC 001:648 JLINK_WriteReg(R7, 0x00000000)  returns 0x00 (0000ms, 0993ms total)
T20AC 001:648 JLINK_WriteReg(R8, 0x00000000)  returns 0x00 (0000ms, 0993ms total)
T20AC 001:648 JLINK_WriteReg(R9, 0x20000160)  returns 0x00 (0000ms, 0993ms total)
T20AC 001:648 JLINK_WriteReg(R10, 0x00000000)  returns 0x00 (0000ms, 0993ms total)
T20AC 001:648 JLINK_WriteReg(R11, 0x00000000)  returns 0x00 (0000ms, 0993ms total)
T20AC 001:648 JLINK_WriteReg(R12, 0x00000000)  returns 0x00 (0000ms, 0993ms total)
T20AC 001:648 JLINK_WriteReg(R13, 0x20000800)  returns 0x00 (0000ms, 0993ms total)
T20AC 001:648 JLINK_WriteReg(R14, 0x20000001)  returns 0x00 (0000ms, 0993ms total)
T20AC 001:648 JLINK_WriteReg(R15, 0x200000F4)  returns 0x00 (0000ms, 0993ms total)
T20AC 001:648 JLINK_WriteReg(XPSR, 0x01000000)  returns 0x00 (0000ms, 0993ms total)
T20AC 001:648 JLINK_WriteReg(MSP, 0x20000800)  returns 0x00 (0000ms, 0993ms total)
T20AC 001:648 JLINK_WriteReg(PSP, 0x20000800)  returns 0x00 (0000ms, 0993ms total)
T20AC 001:648 JLINK_WriteReg(CFBP, 0x00000000)  returns 0x00 (0000ms, 0993ms total)
T20AC 001:648 JLINK_SetBPEx(Addr = 0x20000000, Type = 0xFFFFFFF2)  returns 0x0000000C (0000ms, 0993ms total)
T20AC 001:648 JLINK_Go() -- CPU_WriteMem(4 bytes @ 0xE0002008) -- CPU_WriteMem(4 bytes @ 0xE000200C) -- CPU_WriteMem(4 bytes @ 0xE0002010) -- CPU_WriteMem(4 bytes @ 0xE0002014) -- CPU_WriteMem(4 bytes @ 0xE0002018) -- CPU_WriteMem(4 bytes @ 0xE000201C) (0010ms, 0993ms total)
T20AC 001:658 JLINK_IsHalted()  returns FALSE (0001ms, 1003ms total)
T20AC 001:709 JLINK_IsHalted() -- CPU_ReadMem(2 bytes @ 0x20000000)  returns TRUE (0010ms, 1003ms total)
T20AC 001:719 JLINK_ReadReg(R15)  returns 0x20000000 (0000ms, 1003ms total)
T20AC 001:719 JLINK_ClrBPEx(BPHandle = 0x0000000C)  returns 0x00 (0000ms, 1003ms total)
T20AC 001:719 JLINK_ReadReg(R0)  returns 0x00000000 (0000ms, 1003ms total)
T20AC 001:720 JLINK_WriteMem(0x20000164, 0x0400 Bytes, ...) -- Data:  7A 72 B0 FB F2 F3 02 FB 13 02 64 23 B2 FB F3 F4 ... -- CPU_WriteMem(1024 bytes @ 0x20000164)  returns 0x400 (0013ms, 1003ms total)
T20AC 001:733 JLINK_WriteReg(R0, 0x08002000)  returns 0x00 (0000ms, 1016ms total)
T20AC 001:733 JLINK_WriteReg(R1, 0x00000400)  returns 0x00 (0000ms, 1016ms total)
T20AC 001:733 JLINK_WriteReg(R2, 0x20000164)  returns 0x00 (0000ms, 1016ms total)
T20AC 001:733 JLINK_WriteReg(R3, 0x00000000)  returns 0x00 (0000ms, 1016ms total)
T20AC 001:733 JLINK_WriteReg(R4, 0x00000000)  returns 0x00 (0000ms, 1016ms total)
T20AC 001:733 JLINK_WriteReg(R5, 0x00000000)  returns 0x00 (0000ms, 1016ms total)
T20AC 001:733 JLINK_WriteReg(R6, 0x00000000)  returns 0x00 (0000ms, 1016ms total)
T20AC 001:733 JLINK_WriteReg(R7, 0x00000000)  returns 0x00 (0000ms, 1016ms total)
T20AC 001:733 JLINK_WriteReg(R8, 0x00000000)  returns 0x00 (0000ms, 1016ms total)
T20AC 001:733 JLINK_WriteReg(R9, 0x20000160)  returns 0x00 (0000ms, 1016ms total)
T20AC 001:733 JLINK_WriteReg(R10, 0x00000000)  returns 0x00 (0000ms, 1016ms total)
T20AC 001:733 JLINK_WriteReg(R11, 0x00000000)  returns 0x00 (0000ms, 1016ms total)
T20AC 001:733 JLINK_WriteReg(R12, 0x00000000)  returns 0x00 (0000ms, 1016ms total)
T20AC 001:733 JLINK_WriteReg(R13, 0x20000800)  returns 0x00 (0000ms, 1016ms total)
T20AC 001:733 JLINK_WriteReg(R14, 0x20000001)  returns 0x00 (0000ms, 1016ms total)
T20AC 001:733 JLINK_WriteReg(R15, 0x200000F4)  returns 0x00 (0000ms, 1016ms total)
T20AC 001:733 JLINK_WriteReg(XPSR, 0x01000000)  returns 0x00 (0000ms, 1016ms total)
T20AC 001:733 JLINK_WriteReg(MSP, 0x20000800)  returns 0x00 (0000ms, 1016ms total)
T20AC 001:733 JLINK_WriteReg(PSP, 0x20000800)  returns 0x00 (0000ms, 1016ms total)
T20AC 001:733 JLINK_WriteReg(CFBP, 0x00000000)  returns 0x00 (0000ms, 1016ms total)
T20AC 001:733 JLINK_SetBPEx(Addr = 0x20000000, Type = 0xFFFFFFF2)  returns 0x0000000D (0000ms, 1016ms total)
T20AC 001:733 JLINK_Go() -- CPU_WriteMem(4 bytes @ 0xE0002008) -- CPU_WriteMem(4 bytes @ 0xE000200C) -- CPU_WriteMem(4 bytes @ 0xE0002010) -- CPU_WriteMem(4 bytes @ 0xE0002014) -- CPU_WriteMem(4 bytes @ 0xE0002018) -- CPU_WriteMem(4 bytes @ 0xE000201C) (0010ms, 1016ms total)
T20AC 001:743 JLINK_IsHalted()  returns FALSE (0001ms, 1026ms total)
T20AC 001:794 JLINK_IsHalted() -- CPU_ReadMem(2 bytes @ 0x20000000)  returns TRUE (0010ms, 1026ms total)
T20AC 001:804 JLINK_ReadReg(R15)  returns 0x20000000 (0000ms, 1026ms total)
T20AC 001:804 JLINK_ClrBPEx(BPHandle = 0x0000000D)  returns 0x00 (0000ms, 1026ms total)
T20AC 001:804 JLINK_ReadReg(R0)  returns 0x00000000 (0000ms, 1026ms total)
T20AC 001:805 JLINK_WriteMem(0x20000164, 0x0400 Bytes, ...) -- Data:  0D 46 00 26 05 E0 13 F8 01 7B 78 18 C1 B2 70 1C ... -- CPU_WriteMem(1024 bytes @ 0x20000164)  returns 0x400 (0014ms, 1026ms total)
T20AC 001:819 JLINK_WriteReg(R0, 0x08002400)  returns 0x00 (0000ms, 1040ms total)
T20AC 001:819 JLINK_WriteReg(R1, 0x00000400)  returns 0x00 (0000ms, 1040ms total)
T20AC 001:819 JLINK_WriteReg(R2, 0x20000164)  returns 0x00 (0000ms, 1040ms total)
T20AC 001:819 JLINK_WriteReg(R3, 0x00000000)  returns 0x00 (0000ms, 1040ms total)
T20AC 001:819 JLINK_WriteReg(R4, 0x00000000)  returns 0x00 (0000ms, 1040ms total)
T20AC 001:819 JLINK_WriteReg(R5, 0x00000000)  returns 0x00 (0000ms, 1040ms total)
T20AC 001:819 JLINK_WriteReg(R6, 0x00000000)  returns 0x00 (0000ms, 1040ms total)
T20AC 001:819 JLINK_WriteReg(R7, 0x00000000)  returns 0x00 (0000ms, 1040ms total)
T20AC 001:819 JLINK_WriteReg(R8, 0x00000000)  returns 0x00 (0000ms, 1040ms total)
T20AC 001:819 JLINK_WriteReg(R9, 0x20000160)  returns 0x00 (0000ms, 1040ms total)
T20AC 001:819 JLINK_WriteReg(R10, 0x00000000)  returns 0x00 (0000ms, 1040ms total)
T20AC 001:819 JLINK_WriteReg(R11, 0x00000000)  returns 0x00 (0000ms, 1040ms total)
T20AC 001:819 JLINK_WriteReg(R12, 0x00000000)  returns 0x00 (0000ms, 1040ms total)
T20AC 001:819 JLINK_WriteReg(R13, 0x20000800)  returns 0x00 (0000ms, 1040ms total)
T20AC 001:819 JLINK_WriteReg(R14, 0x20000001)  returns 0x00 (0000ms, 1040ms total)
T20AC 001:819 JLINK_WriteReg(R15, 0x200000F4)  returns 0x00 (0000ms, 1040ms total)
T20AC 001:819 JLINK_WriteReg(XPSR, 0x01000000)  returns 0x00 (0000ms, 1040ms total)
T20AC 001:819 JLINK_WriteReg(MSP, 0x20000800)  returns 0x00 (0000ms, 1040ms total)
T20AC 001:819 JLINK_WriteReg(PSP, 0x20000800)  returns 0x00 (0001ms, 1040ms total)
T20AC 001:820 JLINK_WriteReg(CFBP, 0x00000000)  returns 0x00 (0000ms, 1041ms total)
T20AC 001:820 JLINK_SetBPEx(Addr = 0x20000000, Type = 0xFFFFFFF2)  returns 0x0000000E (0000ms, 1041ms total)
T20AC 001:820 JLINK_Go() -- CPU_WriteMem(4 bytes @ 0xE0002008) -- CPU_WriteMem(4 bytes @ 0xE000200C) -- CPU_WriteMem(4 bytes @ 0xE0002010) -- CPU_WriteMem(4 bytes @ 0xE0002014) -- CPU_WriteMem(4 bytes @ 0xE0002018) -- CPU_WriteMem(4 bytes @ 0xE000201C) (0009ms, 1041ms total)
T20AC 001:829 JLINK_IsHalted()  returns FALSE (0001ms, 1050ms total)
T20AC 001:880 JLINK_IsHalted() -- CPU_ReadMem(2 bytes @ 0x20000000)  returns TRUE (0011ms, 1050ms total)
T20AC 001:891 JLINK_ReadReg(R15)  returns 0x20000000 (0000ms, 1050ms total)
T20AC 001:891 JLINK_ClrBPEx(BPHandle = 0x0000000E)  returns 0x00 (0000ms, 1050ms total)
T20AC 001:891 JLINK_ReadReg(R0)  returns 0x00000000 (0000ms, 1050ms total)
T20AC 001:892 JLINK_WriteMem(0x20000164, 0x0400 Bytes, ...) -- Data:  27 FF 68 1C 85 B2 BD 42 F8 DB 10 21 67 48 FD F7 ... -- CPU_WriteMem(1024 bytes @ 0x20000164)  returns 0x400 (0013ms, 1050ms total)
T20AC 001:905 JLINK_WriteReg(R0, 0x08002800)  returns 0x00 (0000ms, 1063ms total)
T20AC 001:905 JLINK_WriteReg(R1, 0x00000400)  returns 0x00 (0000ms, 1063ms total)
T20AC 001:905 JLINK_WriteReg(R2, 0x20000164)  returns 0x00 (0000ms, 1063ms total)
T20AC 001:905 JLINK_WriteReg(R3, 0x00000000)  returns 0x00 (0000ms, 1063ms total)
T20AC 001:905 JLINK_WriteReg(R4, 0x00000000)  returns 0x00 (0000ms, 1063ms total)
T20AC 001:905 JLINK_WriteReg(R5, 0x00000000)  returns 0x00 (0000ms, 1063ms total)
T20AC 001:906 JLINK_WriteReg(R6, 0x00000000)  returns 0x00 (0000ms, 1064ms total)
T20AC 001:906 JLINK_WriteReg(R7, 0x00000000)  returns 0x00 (0000ms, 1064ms total)
T20AC 001:906 JLINK_WriteReg(R8, 0x00000000)  returns 0x00 (0000ms, 1064ms total)
T20AC 001:906 JLINK_WriteReg(R9, 0x20000160)  returns 0x00 (0000ms, 1064ms total)
T20AC 001:906 JLINK_WriteReg(R10, 0x00000000)  returns 0x00 (0000ms, 1064ms total)
T20AC 001:906 JLINK_WriteReg(R11, 0x00000000)  returns 0x00 (0000ms, 1064ms total)
T20AC 001:906 JLINK_WriteReg(R12, 0x00000000)  returns 0x00 (0000ms, 1064ms total)
T20AC 001:906 JLINK_WriteReg(R13, 0x20000800)  returns 0x00 (0000ms, 1064ms total)
T20AC 001:906 JLINK_WriteReg(R14, 0x20000001)  returns 0x00 (0000ms, 1064ms total)
T20AC 001:906 JLINK_WriteReg(R15, 0x200000F4)  returns 0x00 (0000ms, 1064ms total)
T20AC 001:906 JLINK_WriteReg(XPSR, 0x01000000)  returns 0x00 (0000ms, 1064ms total)
T20AC 001:906 JLINK_WriteReg(MSP, 0x20000800)  returns 0x00 (0000ms, 1064ms total)
T20AC 001:906 JLINK_WriteReg(PSP, 0x20000800)  returns 0x00 (0000ms, 1064ms total)
T20AC 001:906 JLINK_WriteReg(CFBP, 0x00000000)  returns 0x00 (0000ms, 1064ms total)
T20AC 001:906 JLINK_SetBPEx(Addr = 0x20000000, Type = 0xFFFFFFF2)  returns 0x0000000F (0000ms, 1064ms total)
T20AC 001:906 JLINK_Go() -- CPU_WriteMem(4 bytes @ 0xE0002008) -- CPU_WriteMem(4 bytes @ 0xE000200C) -- CPU_WriteMem(4 bytes @ 0xE0002010) -- CPU_WriteMem(4 bytes @ 0xE0002014) -- CPU_WriteMem(4 bytes @ 0xE0002018) -- CPU_WriteMem(4 bytes @ 0xE000201C) (0010ms, 1064ms total)
T20AC 001:916 JLINK_IsHalted()  returns FALSE (0001ms, 1074ms total)
T20AC 001:967 JLINK_IsHalted() -- CPU_ReadMem(2 bytes @ 0x20000000)  returns TRUE (0010ms, 1074ms total)
T20AC 001:977 JLINK_ReadReg(R15)  returns 0x20000000 (0000ms, 1074ms total)
T20AC 001:977 JLINK_ClrBPEx(BPHandle = 0x0000000F)  returns 0x00 (0000ms, 1074ms total)
T20AC 001:977 JLINK_ReadReg(R0)  returns 0x00000000 (0000ms, 1074ms total)
T20AC 001:979 JLINK_WriteMem(0x20000164, 0x0400 Bytes, ...) -- Data:  FF F7 D8 FE 00 20 48 49 08 70 4D 49 08 70 4D 49 ... -- CPU_WriteMem(1024 bytes @ 0x20000164)  returns 0x400 (0013ms, 1074ms total)
T20AC 001:992 JLINK_WriteReg(R0, 0x08002C00)  returns 0x00 (0000ms, 1087ms total)
T20AC 001:992 JLINK_WriteReg(R1, 0x00000400)  returns 0x00 (0000ms, 1087ms total)
T20AC 001:992 JLINK_WriteReg(R2, 0x20000164)  returns 0x00 (0000ms, 1087ms total)
T20AC 001:993 JLINK_WriteReg(R3, 0x00000000)  returns 0x00 (0000ms, 1088ms total)
T20AC 001:993 JLINK_WriteReg(R4, 0x00000000)  returns 0x00 (0000ms, 1088ms total)
T20AC 001:993 JLINK_WriteReg(R5, 0x00000000)  returns 0x00 (0000ms, 1088ms total)
T20AC 001:993 JLINK_WriteReg(R6, 0x00000000)  returns 0x00 (0000ms, 1088ms total)
T20AC 001:993 JLINK_WriteReg(R7, 0x00000000)  returns 0x00 (0000ms, 1088ms total)
T20AC 001:993 JLINK_WriteReg(R8, 0x00000000)  returns 0x00 (0000ms, 1088ms total)
T20AC 001:993 JLINK_WriteReg(R9, 0x20000160)  returns 0x00 (0000ms, 1088ms total)
T20AC 001:993 JLINK_WriteReg(R10, 0x00000000)  returns 0x00 (0000ms, 1088ms total)
T20AC 001:993 JLINK_WriteReg(R11, 0x00000000)  returns 0x00 (0000ms, 1088ms total)
T20AC 001:993 JLINK_WriteReg(R12, 0x00000000)  returns 0x00 (0000ms, 1088ms total)
T20AC 001:993 JLINK_WriteReg(R13, 0x20000800)  returns 0x00 (0000ms, 1088ms total)
T20AC 001:993 JLINK_WriteReg(R14, 0x20000001)  returns 0x00 (0000ms, 1088ms total)
T20AC 001:993 JLINK_WriteReg(R15, 0x200000F4)  returns 0x00 (0000ms, 1088ms total)
T20AC 001:993 JLINK_WriteReg(XPSR, 0x01000000)  returns 0x00 (0000ms, 1088ms total)
T20AC 001:993 JLINK_WriteReg(MSP, 0x20000800)  returns 0x00 (0000ms, 1088ms total)
T20AC 001:993 JLINK_WriteReg(PSP, 0x20000800)  returns 0x00 (0000ms, 1088ms total)
T20AC 001:993 JLINK_WriteReg(CFBP, 0x00000000)  returns 0x00 (0000ms, 1088ms total)
T20AC 001:993 JLINK_SetBPEx(Addr = 0x20000000, Type = 0xFFFFFFF2)  returns 0x00000010 (0000ms, 1088ms total)
T20AC 001:993 JLINK_Go() -- CPU_WriteMem(4 bytes @ 0xE0002008) -- CPU_WriteMem(4 bytes @ 0xE000200C) -- CPU_WriteMem(4 bytes @ 0xE0002010) -- CPU_WriteMem(4 bytes @ 0xE0002014) -- CPU_WriteMem(4 bytes @ 0xE0002018) -- CPU_WriteMem(4 bytes @ 0xE000201C) (0010ms, 1088ms total)
T20AC 002:003 JLINK_IsHalted()  returns FALSE (0001ms, 1098ms total)
T20AC 002:054 JLINK_IsHalted() -- CPU_ReadMem(2 bytes @ 0x20000000)  returns TRUE (0012ms, 1098ms total)
T20AC 002:066 JLINK_ReadReg(R15)  returns 0x20000000 (0000ms, 1098ms total)
T20AC 002:066 JLINK_ClrBPEx(BPHandle = 0x00000010)  returns 0x00 (0000ms, 1098ms total)
T20AC 002:066 JLINK_ReadReg(R0)  returns 0x00000000 (0000ms, 1098ms total)
T20AC 002:067 JLINK_WriteMem(0x20000164, 0x0400 Bytes, ...) -- Data:  00 78 10 F0 01 0F 7A D0 6E 48 00 78 07 28 5C DC ... -- CPU_WriteMem(1024 bytes @ 0x20000164)  returns 0x400 (0013ms, 1098ms total)
T20AC 002:080 JLINK_WriteReg(R0, 0x08003000)  returns 0x00 (0000ms, 1111ms total)
T20AC 002:080 JLINK_WriteReg(R1, 0x00000400)  returns 0x00 (0000ms, 1111ms total)
T20AC 002:080 JLINK_WriteReg(R2, 0x20000164)  returns 0x00 (0000ms, 1111ms total)
T20AC 002:080 JLINK_WriteReg(R3, 0x00000000)  returns 0x00 (0001ms, 1111ms total)
T20AC 002:081 JLINK_WriteReg(R4, 0x00000000)  returns 0x00 (0000ms, 1112ms total)
T20AC 002:081 JLINK_WriteReg(R5, 0x00000000)  returns 0x00 (0000ms, 1112ms total)
T20AC 002:081 JLINK_WriteReg(R6, 0x00000000)  returns 0x00 (0000ms, 1112ms total)
T20AC 002:081 JLINK_WriteReg(R7, 0x00000000)  returns 0x00 (0000ms, 1112ms total)
T20AC 002:081 JLINK_WriteReg(R8, 0x00000000)  returns 0x00 (0000ms, 1112ms total)
T20AC 002:081 JLINK_WriteReg(R9, 0x20000160)  returns 0x00 (0000ms, 1112ms total)
T20AC 002:081 JLINK_WriteReg(R10, 0x00000000)  returns 0x00 (0000ms, 1112ms total)
T20AC 002:081 JLINK_WriteReg(R11, 0x00000000)  returns 0x00 (0000ms, 1112ms total)
T20AC 002:081 JLINK_WriteReg(R12, 0x00000000)  returns 0x00 (0000ms, 1112ms total)
T20AC 002:081 JLINK_WriteReg(R13, 0x20000800)  returns 0x00 (0000ms, 1112ms total)
T20AC 002:081 JLINK_WriteReg(R14, 0x20000001)  returns 0x00 (0000ms, 1112ms total)
T20AC 002:081 JLINK_WriteReg(R15, 0x200000F4)  returns 0x00 (0000ms, 1112ms total)
T20AC 002:081 JLINK_WriteReg(XPSR, 0x01000000)  returns 0x00 (0000ms, 1112ms total)
T20AC 002:081 JLINK_WriteReg(MSP, 0x20000800)  returns 0x00 (0000ms, 1112ms total)
T20AC 002:081 JLINK_WriteReg(PSP, 0x20000800)  returns 0x00 (0000ms, 1112ms total)
T20AC 002:081 JLINK_WriteReg(CFBP, 0x00000000)  returns 0x00 (0000ms, 1112ms total)
T20AC 002:081 JLINK_SetBPEx(Addr = 0x20000000, Type = 0xFFFFFFF2)  returns 0x00000011 (0000ms, 1112ms total)
T20AC 002:081 JLINK_Go() -- CPU_WriteMem(4 bytes @ 0xE0002008) -- CPU_WriteMem(4 bytes @ 0xE000200C) -- CPU_WriteMem(4 bytes @ 0xE0002010) -- CPU_WriteMem(4 bytes @ 0xE0002014) -- CPU_WriteMem(4 bytes @ 0xE0002018) -- CPU_WriteMem(4 bytes @ 0xE000201C) (0010ms, 1112ms total)
T20AC 002:091 JLINK_IsHalted()  returns FALSE (0001ms, 1122ms total)
T20AC 002:142 JLINK_IsHalted() -- CPU_ReadMem(2 bytes @ 0x20000000)  returns TRUE (0010ms, 1122ms total)
T20AC 002:152 JLINK_ReadReg(R15)  returns 0x20000000 (0001ms, 1122ms total)
T20AC 002:153 JLINK_ClrBPEx(BPHandle = 0x00000011)  returns 0x00 (0000ms, 1123ms total)
T20AC 002:153 JLINK_ReadReg(R0)  returns 0x00000000 (0000ms, 1123ms total)
T20AC 002:154 JLINK_WriteMem(0x20000164, 0x0400 Bytes, ...) -- Data:  36 F9 00 24 05 E0 AE 48 01 5D AE 48 01 55 60 1C ... -- CPU_WriteMem(1024 bytes @ 0x20000164)  returns 0x400 (0013ms, 1123ms total)
